! Touchstone file from project ms_2d_fr4_fsweep
! Variables:
!  t = 35um
!  w = 3mm
!  x_sub = 30mm
!  z_sub = 1.6mm
!  length = 1m
# GHZ S DB R 50.000000
1                -45.3758198943583 140.465199691813 -3.28358883584377 -50.2686150377009 -3.28358883584377 -50.2686150377009 -45.3758198943583 140.465199691813 
1.45             -47.1451399619136 85.8243872318994 -4.69249218333474 42.3944964500255 -4.69249218333474 42.3944964500255 -47.1451399619136 85.8243872318994 
1.9              -47.4173698434786 109.207391476343 -6.09046991403147 136.931339277272 -6.09046991403147 136.931339277272 -47.4173698434786 109.207391476343 
2.35             -46.963520410481 77.9705140148505 -7.4794949300004 -127.116540321083 -7.4794949300004 -127.116540321083 -46.963520410481 77.9705140148505 
2.8              -47.8598777283787 87.7372685852071 -8.86079293746076 -30.0238009420369 -8.86079293746076 -30.0238009420369 -47.8598777283787 87.7372685852071 
3.25             -46.5467736078716 72.0795775532613 -10.2350171072495 68.0225456098384 -10.2350171072495 68.0225456098384 -46.5467736078716 72.0795775532613 
3.7              -47.4617369847446 73.0817344379666 -11.6026512056952 166.88986707992  -11.6026512056952 166.88986707992  -47.4617369847446 73.0817344379666 
4.15             -46.2523470347052 67.1776996602348 -12.9639592249412 -93.5233563139591 -12.9639592249412 -93.5233563139591 -46.2523470347052 67.1776996602348 
4.6              -46.76506681568  63.8437701149287 -14.3192040313436 6.70451520355567 -14.3192040313436 6.70451520355567 -46.76506681568  63.8437701149287 
5.05             -46.0316860320962 62.4918360481105 -15.6685052088681 107.509759772812 -15.6685052088681 107.509759772812 -46.0316860320962 62.4918360481105 
5.5              -46.1003418601511 58.2579842819126 -17.012035165174 -151.159538323562 -17.012035165174 -151.159538323562 -46.1003418601511 58.2579842819126 
5.95             -45.7838110328884 57.9519562598496 -18.3498613184666 -49.3470346855993 -18.3498613184666 -49.3470346855993 -45.7838110328884 57.9519562598496 
6.4              -45.5832645451419 54.6614005206534 -19.6821010541056 52.9102691365511 -19.6821010541056 52.9102691365511 -45.5832645451419 54.6614005206534 
6.85             -45.469627666227 53.9181466063911 -21.0088075533521 155.580632581982 -21.0088075533521 155.580632581982 -45.469627666227 53.9181466063911 
7.3              -45.2022472936289 51.931434804191  -22.3300578322638 -101.363647782397 -22.3300578322638 -101.363647782397 -45.2022472936289 51.931434804191  
7.75             -45.1200911248597 50.6677439592564 -23.6459025006113 2.05328952169463 -23.6459025006113 2.05328952169463 -45.1200911248597 50.6677439592564 
8.2              -44.9009721709253 49.5264121042889 -24.9563913146388 105.809970997099 -24.9563913146388 105.809970997099 -44.9009721709253 49.5264121042889 
8.65             -44.7847192075483 48.1622285353117 -26.2615713961075 -150.11261189324 -26.2615713961075 -150.11261189324 -44.7847192075483 48.1622285353117 
9.1              -44.631086151195 47.3187891731149 -27.5614777058993 -45.7315590954659 -27.5614777058993 -45.7315590954659 -44.631086151195 47.3187891731149 
9.55             -44.4900656748047 46.1704387121431 -28.8561500789224 58.9377520236553 -28.8561500789224 58.9377520236553 -44.4900656748047 46.1704387121431 
10               -44.3726192634356 45.3534746334163 -30.1456171779044 163.881385569892 -30.1456171779044 163.881385569892 -44.3726192634356 45.3534746334163 
